EC-Lab ASCII FILE
Nb header lines : 62                          

Potentio Electrochemical Impedance Spectroscopy

Run on channel : 1 (SN 31418)
User : 
CE vs. WE compliance from -10 V to 10 V
Electrode connection : standard
Ewe ctrl range : min = -10.00 V, max = 10.00 V
Safety Limits :
	Do not start on E overload
Acquisition started on : 01/25/2023 15:21:28
Technique started on : 01/25/2023 15:26:33
Saved on :
	File : [1] JJ1-53 1st SC total meas_01_PEIS.mpr
	Directory : C:\Users\Potentiostat\Documents\EC-Lab\Data\Supercapacitor until 2021 02\(230125) SC JJ1-53 54 lower CB better viscosity\
	Host : 127.0.0.1
Device : SP-150 (SN 1275)
Address : USB
EC-Lab for windows v11.16 (software)
Internet server v11.16 (firmware)
Command interpretor v11.16 (firmware)
Electrode material : Au/Pd
Initial state : 
Electrolyte : NaCl (0.2M)
Comments : Fe(CN)63-/Fe(CN)64- 5.10-3 M
Reference electrode : SCE Saturated Calomel Electrode (0.241 V)
Electrode surface area : 0.001 cm²
Characteristic mass : 0.001 g
Equivalent Weight : 0.000 g/eq.
Density : 0.000 g/cm3
Cycle Definition : Charge/Discharge alternance
Mode                Single sine         
E (V)               0.4000              
vs.                 Ref                 
tE (h:m:s)          0:05:0.0000         
record              0                   
dI                  0.000               
unit dI             mA                  
dt (s)              0.000               
fi                  1.000               
unit fi             MHz                 
ff                  100.000             
unit ff             mHz                 
Nd                  10                  
Points              per decade          
spacing             Logarithmic         
Va (mV)             5.0                 
pw                  5.00                
Na                  5                   
corr                1                   
E range min (V)     -10.000             
E range max (V)     10.000              
I Range             Auto                
Bandwidth           5                   
nc cycles           0                   
goto Ns'            0                   
nr cycles           0                   
inc. cycle          0                   

freq/Hz	Re(Z)/Ohm	-Im(Z)/Ohm	|Z|/Ohm	Phase(Z)/deg	time/s	<Ewe>/V	<I>/mA	Cs/µF	Cp/µF	cycle number	I Range	|Ewe|/V	|I|/A	Re(Y)/Ohm-1	Im(Y)/Ohm-1	|Y|/Ohm-1	Phase(Y)/deg	
1.0000193E+006	7.1238052E+001	4.9043732E+001	8.6487846E+001	-3.4545410E+001	3.051830988954171E+002	4.0002033E-001	2.6743831E-002	3.2451013E-003	1.0434823E-003	1.000000000000000E+000	11	4.2949690E-004	4.9659798E-006	9.5236162E-003	6.5565193E-003	1.1562319E-002	3.4545410E+001
7.9167950E+005	1.4302890E+002	-1.0082286E+001	1.4338382E+002	4.0321813E+000	3.064901010108297E+002	3.9948565E-001	2.0062638E-002	-1.9939383E-002	-9.8589226E-005	1.000000000000000E+000	11	1.1638883E-003	8.1172911E-006	6.9570243E-003	-4.9040932E-004	6.9742878E-003	-4.0321813E+000
6.2675769E+005	5.2127796E+001	-3.7427547E+000	5.2261986E+001	4.1067667E+000	3.077961084595008E+002	3.9947343E-001	2.1396117E-002	-6.7846760E-002	-3.4796857E-004	1.000000000000000E+000	11	2.7049100E-003	5.1756739E-005	1.9085236E-002	-1.3703123E-003	1.9134367E-002	-4.1067667E+000
4.9619128E+005	3.7372948E+001	-2.1657355E+000	3.7435646E+001	3.3165400E+000	3.089711061420094E+002	3.9957249E-001	2.3099549E-002	-1.4810359E-001	-4.9568497E-004	1.000000000000000E+000	11	5.2659307E-003	1.4066622E-004	2.6667770E-002	-1.5453780E-003	2.6712509E-002	-3.3165400E+000
3.9283194E+005	3.2002659E+001	-7.4739736E-001	3.2011387E+001	1.3378555E+000	3.105721110180311E+002	3.9969102E-001	3.8443126E-002	-5.4207802E-001	-2.9549896E-004	1.000000000000000E+000	10	4.5847511E-003	1.4322251E-004	3.1230368E-002	-7.2936108E-004	3.1238884E-002	-1.3378555E+000
3.1099603E+005	2.9301693E+001	-2.1449742E-001	2.9302479E+001	4.1941527E-001	3.118791110534512E+002	3.9970803E-001	3.8595986E-002	-2.3858504E+000	-1.2784349E-004	1.000000000000000E+000	10	5.3668125E-003	1.8315217E-004	3.4125894E-002	-2.4981206E-004	3.4126807E-002	-4.1941527E-001
2.4621088E+005	2.7876030E+001	7.3352881E-002	2.7876127E+001	-1.5076755E-001	3.131861098355439E+002	3.9970779E-001	3.8053513E-002	8.8124313E+000	6.1019018E-005	1.000000000000000E+000	10	5.3601754E-003	1.9228552E-004	3.5872865E-002	9.4395720E-005	3.5872988E-002	1.5076755E-001
1.9492183E+005	2.7144766E+001	2.2745378E-001	2.7145720E+001	-4.8008654E-001	3.144931100309186E+002	3.9971650E-001	3.8310766E-002	3.5897689E+000	2.5202875E-004	1.000000000000000E+000	10	5.4173586E-003	1.9956585E-004	3.6836930E-002	3.0866719E-004	3.6838222E-002	4.8008654E-001
1.5431638E+005	2.6746998E+001	4.3183812E-001	2.6750484E+001	-9.2497677E-001	3.158001043863769E+002	3.9971894E-001	3.8795453E-002	2.3882904E+000	6.2239455E-004	1.000000000000000E+000	10	5.3629577E-003	2.0048078E-004	3.7377629E-002	6.0347281E-004	3.7382502E-002	9.2497677E-001
1.2216794E+005	2.6522076E+001	5.0787622E-001	2.6526937E+001	-1.0970336E+000	3.171070999417861E+002	3.9973378E-001	3.8124349E-002	2.5651040E+000	9.4025687E-004	1.000000000000000E+000	10	5.2576605E-003	1.9820081E-004	3.7690617E-002	7.2174473E-004	3.7697528E-002	1.0970336E+000
9.6718727E+004	2.6461945E+001	6.3836354E-001	2.6469643E+001	-1.3819258E+000	3.184141128305055E+002	3.9974523E-001	3.8672414E-002	2.5777540E+000	1.4992756E-003	1.000000000000000E+000	10	5.2194805E-003	1.9718742E-004	3.7768137E-002	9.1111229E-004	3.7779126E-002	1.3819258E+000
7.6572250E+004	2.6491564E+001	7.4943489E-001	2.6502163E+001	-1.6204406E+000	3.197211135325779E+002	3.9973646E-001	3.8120620E-002	2.7734146E+000	2.2177878E-003	1.000000000000000E+000	10	5.1335236E-003	1.9370206E-004	3.7717678E-002	1.0670169E-003	3.7732769E-002	1.6204406E+000
6.0615219E+004	2.6495277E+001	7.7399349E-001	2.6506580E+001	-1.6732775E+000	3.210280994613422E+002	3.9974672E-001	3.7960302E-002	3.3923538E+000	2.8924665E-003	1.000000000000000E+000	10	5.0699608E-003	1.9127179E-004	3.7710395E-002	1.1016151E-003	3.7726481E-002	1.6732775E+000
4.7988266E+004	2.6495810E+001	8.6829108E-001	2.6510033E+001	-1.8769616E+000	3.223351068834018E+002	3.9972091E-001	3.7315302E-002	3.8196163E+000	4.0976033E-003	1.000000000000000E+000	10	5.0695115E-003	1.9122992E-004	3.7701327E-002	1.2355058E-003	3.7721567E-002	1.8769616E+000
3.7998035E+004	2.6627743E+001	9.2986327E-001	2.6643974E+001	-2.0000043E+000	3.236410913454602E+002	3.9973721E-001	3.8290258E-002	4.5044303E+000	5.4863063E-003	1.000000000000000E+000	10	5.0601810E-003	1.8991840E-004	3.7509076E-002	1.3098486E-003	3.7531938E-002	2.0000043E+000
3.0078117E+004	2.6734402E+001	9.5181435E-001	2.6751339E+001	-2.0390179E+000	3.248161089479399E+002	3.9972767E-001	3.7227683E-002	5.5592628E+000	7.0376988E-003	1.000000000000000E+000	10	5.4085422E-003	2.0217837E-004	3.7357636E-002	1.3300293E-003	3.7381306E-002	2.0390179E+000
2.3808586E+004	2.6893967E+001	1.0344095E+000	2.6913853E+001	-2.2026539E+000	3.261230927700235E+002	3.9973786E-001	3.7486807E-002	6.4624033E+000	9.5461290E-003	1.000000000000000E+000	10	5.0986200E-003	1.8944222E-004	3.7128136E-002	1.4280414E-003	3.7155587E-002	2.2026539E+000
1.8847650E+004	2.7020948E+001	1.0375210E+000	2.7040859E+001	-2.1989009E+000	3.272981108524546E+002	3.9973044E-001	3.7384275E-002	8.1389055E+000	1.1981711E-002	1.000000000000000E+000	10	5.2670371E-003	1.9478069E-004	3.6953840E-002	1.4189135E-003	3.6981072E-002	2.1989009E+000
1.4921869E+004	2.7158321E+001	1.0677615E+000	2.7179304E+001	-2.2514918E+000	3.284730931749800E+002	3.9974165E-001	3.7703045E-002	9.9890137E+000	1.5416810E-002	1.000000000000000E+000	10	5.3721271E-003	1.9765506E-004	3.6764298E-002	1.4454318E-003	3.6792699E-002	2.2514918E+000
1.1816401E+004	2.7307219E+001	1.1308908E+000	2.7330626E+001	-2.3714707E+000	3.296471013373812E+002	3.9973846E-001	3.7399188E-002	1.1910068E+001	2.0391840E-002	1.000000000000000E+000	10	5.4479293E-003	1.9933423E-004	3.6557652E-002	1.5139849E-003	3.6588989E-002	2.3714707E+000
9.3549160E+003	2.7496712E+001	1.1755140E+000	2.7521828E+001	-2.4479656E+000	3.308892800363537E+002	3.9977643E-001	3.9300639E-002	1.4472795E+001	2.6403014E-002	1.000000000000000E+000	10	5.4880660E-003	1.9940776E-004	3.6301639E-002	1.5519342E-003	3.6334798E-002	2.4479656E+000
7.5403110E+003	2.7653036E+001	1.1627204E+000	2.7677469E+001	-2.4076836E+000	3.325416489149065E+002	3.9973974E-001	3.6649793E-002	1.8153299E+001	3.2037117E-002	1.000000000000000E+000	10	5.0287950E-003	1.8169273E-004	3.6098573E-002	1.5178280E-003	3.6130469E-002	2.4076836E+000
5.8880967E+003	2.7820807E+001	1.2211690E+000	2.7847595E+001	-2.5133328E+000	3.344008383098699E+002	3.9974117E-001	3.5712115E-002	2.2134485E+001	4.2564306E-002	1.000000000000000E+000	10	5.0476305E-003	1.8125912E-004	3.5875197E-002	1.5747092E-003	3.5909742E-002	2.5133328E+000
4.6414844E+003	2.7982454E+001	1.3011974E+000	2.8012691E+001	-2.6623631E+000	3.365097028633754E+002	3.9975056E-001	3.6254589E-002	2.6352392E+001	5.6858677E-002	1.000000000000000E+000	10	5.0509060E-003	1.8030778E-004	3.5659574E-002	1.6581870E-003	3.5698105E-002	2.6623631E+000
3.6761755E+003	2.8200918E+001	1.3040174E+000	2.8231050E+001	-2.6474853E+000	3.386196927769270E+002	3.9976069E-001	3.6385078E-002	3.3200184E+001	7.0835866E-002	1.000000000000000E+000	10	5.0628474E-003	1.7933613E-004	3.5384182E-002	1.6361733E-003	3.5421990E-002	2.6474853E+000
2.9109307E+003	2.8369596E+001	1.3865852E+000	2.8403461E+001	-2.7981472E+000	3.407286843971015E+002	3.9975068E-001	3.6317971E-002	3.9431355E+001	9.3970671E-002	1.000000000000000E+000	10	5.0629261E-003	1.7825032E-004	3.5165001E-002	1.7187156E-003	3.5206977E-002	2.7981472E+000
2.3027888E+003	2.8595364E+001	1.4507897E+000	2.8632143E+001	-2.9044189E+000	3.428419814841182E+002	3.9976904E-001	3.6004789E-002	4.7638882E+001	1.2231023E-001	1.000000000000000E+000	10	5.0696544E-003	1.7706165E-004	3.4880918E-002	1.7696882E-003	3.4925781E-002	2.9044189E+000
1.8232490E+003	2.8766752E+001	1.5057317E+000	2.8806133E+001	-2.9962857E+000	3.449549723578093E+002	3.9975953E-001	3.6357120E-002	5.7973099E+001	1.5839876E-001	1.000000000000000E+000	10	5.0666374E-003	1.7588746E-004	3.4667373E-002	1.8145863E-003	3.4714829E-002	2.9962857E+000
1.4436138E+003	2.8972944E+001	1.5659293E+000	2.9015230E+001	-3.0937116E+000	3.470679766181856E+002	3.9975169E-001	3.6002923E-002	7.0403938E+001	2.0506389E-001	1.000000000000000E+000	10	5.0669671E-003	1.7463129E-004	3.4414429E-002	1.8600307E-003	3.4464657E-002	3.0937116E+000
1.1424408E+003	2.9210340E+001	1.6707237E+000	2.9258081E+001	-3.2735405E+000	3.491821957052744E+002	3.9976192E-001	3.5835147E-002	8.3383820E+001	2.7189386E-001	1.000000000000000E+000	10	5.0712167E-003	1.7332705E-004	3.4122825E-002	1.9516995E-003	3.4178592E-002	3.2735405E+000
9.0528949E+002	2.9494228E+001	1.7783012E+000	2.9547789E+001	-3.4503686E+000	3.512926853255267E+002	3.9975902E-001	3.5262849E-002	9.8861534E+001	3.5808656E-001	1.000000000000000E+000	10	5.0680819E-003	1.7152153E-004	3.3782132E-002	2.0368327E-003	3.3843480E-002	3.4503686E+000
7.1614557E+002	2.9732586E+001	1.7598431E+000	2.9784622E+001	-3.3873301E+000	3.533994509988988E+002	3.9975759E-001	3.6209848E-002	1.2628299E+002	4.4086802E-001	1.000000000000000E+000	10	5.0633308E-003	1.6999815E-004	3.3515714E-002	1.9837630E-003	3.3574373E-002	3.3873301E+000
5.6736005E+002	2.9954943E+001	1.8807294E+000	3.0013926E+001	-3.5926158E+000	3.557539551374211E+002	3.9974225E-001	2.2928758E-002	1.4915405E+002	5.8565533E-001	1.000000000000000E+000	11	5.0714980E-003	1.6897150E-004	3.3252392E-002	2.0877607E-003	3.3317868E-002	3.5926158E+000
4.4899417E+002	3.0245661E+001	1.9741504E+000	3.0310019E+001	-3.7344289E+000	3.578682177178271E+002	3.9975202E-001	2.3026006E-002	1.7955569E+002	7.6170582E-001	1.000000000000000E+000	11	5.0747478E-003	1.6742806E-004	3.2922339E-002	2.1488585E-003	3.2992393E-002	3.7344289E+000
3.5556885E+002	3.0534550E+001	2.0494850E+000	3.0603252E+001	-3.8399444E+000	3.599754617378640E+002	3.9974567E-001	2.2750126E-002	2.1839952E+002	9.7950351E-001	1.000000000000000E+000	11	5.0711432E-003	1.6570602E-004	3.2602906E-002	2.1883135E-003	3.2676265E-002	3.8399444E+000
2.8153149E+002	3.0848877E+001	2.1283791E+000	3.0922213E+001	-3.9467950E+000	3.620746716776484E+002	3.9974603E-001	2.2735007E-002	2.6560983E+002	1.2583487E+000	1.000000000000000E+000	11	5.0705760E-003	1.6397843E-004	3.2262515E-002	2.2259112E-003	3.2339212E-002	3.9467950E+000
2.2278986E+002	3.1156034E+001	2.2389364E+000	3.1236378E+001	-4.1103263E+000	3.642037488720962E+002	3.9974383E-001	2.2509899E-002	3.1906778E+002	1.6392498E+000	1.000000000000000E+000	11	5.0689178E-003	1.6227610E-004	3.1931613E-002	2.2946710E-003	3.2013956E-002	4.1103263E+000
1.7641125E+002	3.1502550E+001	2.3369021E+000	3.1589109E+001	-4.2425084E+000	3.662981473182153E+002	3.9974010E-001	2.2565523E-002	3.8605869E+002	2.1128061E+000	1.000000000000000E+000	11	5.0698668E-003	1.6049414E-004	3.1569738E-002	2.3418863E-003	3.1656481E-002	4.2425084E+000
1.3968706E+002	3.1872253E+001	2.4474175E+000	3.1966082E+001	-4.3910308E+000	3.684132237119775E+002	3.9975166E-001	2.2645412E-002	4.6553879E+002	2.7289350E+000	1.000000000000000E+000	11	5.0718593E-003	1.5866378E-004	3.1191334E-002	2.3951307E-003	3.1283159E-002	4.3910308E+000
1.1045951E+002	3.2216633E+001	2.5143077E+000	3.2314598E+001	-4.4625335E+000	3.705159140785690E+002	3.9973915E-001	2.2393424E-002	5.7305798E+002	3.4692686E+000	1.000000000000000E+000	11	5.0685727E-003	1.5685086E-004	3.0851953E-002	2.4078030E-003	3.0945767E-002	4.4625335E+000
8.7453354E+001	3.2613068E+001	2.6552360E+000	3.2720978E+001	-4.6545453E+000	3.726825992747035E+002	3.9974093E-001	2.2202754E-002	6.8539435E+002	4.5133004E+000	1.000000000000000E+000	11	5.0704265E-003	1.5495950E-004	3.0460645E-002	2.4799937E-003	3.0561434E-002	4.6545453E+000
6.9312408E+001	3.2945957E+001	2.7119408E+000	3.3057384E+001	-4.7056832E+000	3.748137568160455E+002	3.9974663E-001	2.2134159E-002	8.4669879E+002	5.6983924E+000	1.000000000000000E+000	11	5.0627724E-003	1.5315102E-004	3.0148460E-002	2.4816652E-003	3.0250426E-002	4.7056832E+000
5.4877064E+001	3.3357079E+001	2.8427517E+000	3.3477993E+001	-4.8710823E+000	3.769281948631105E+002	3.9975083E-001	2.2069948E-002	1.0202118E+003	7.3561296E+000	1.000000000000000E+000	11	5.0623571E-003	1.5121448E-004	2.9762486E-002	2.5364140E-003	2.9870369E-002	4.8710823E+000
4.3402771E+001	3.3802673E+001	2.9836707E+000	3.3934097E+001	-5.0442710E+000	3.791121441935247E+002	3.9974442E-001	2.2026643E-002	1.2289998E+003	9.5012550E+000	1.000000000000000E+000	11	5.0685005E-003	1.4936306E-004	2.9354753E-002	2.5910649E-003	2.9468885E-002	5.0442710E+000
3.4394642E+001	3.4226151E+001	3.0791228E+000	3.4364376E+001	-5.1407208E+000	3.812562853886920E+002	3.9974299E-001	2.1797057E-002	1.5028041E+003	1.2065336E+001	1.000000000000000E+000	11	5.0664200E-003	1.4743232E-004	2.8982852E-002	2.6074145E-003	2.9099902E-002	5.1407208E+000
2.7202291E+001	3.4684597E+001	3.2008967E+000	3.4831982E+001	-5.2726536E+000	3.832075540413789E+002	3.9974120E-001	2.1745725E-002	1.8278601E+003	1.5435828E+001	1.000000000000000E+000	11	5.0676521E-003	1.4548848E-004	2.8587770E-002	2.6382459E-003	2.8709248E-002	5.2726536E+000
2.1551723E+001	3.5127300E+001	3.3580902E+000	3.5287449E+001	-5.4607515E+000	3.851783473082760E+002	3.9973286E-001	2.1698315E-002	2.1991040E+003	1.9915443E+001	1.000000000000000E+000	11	5.0652921E-003	1.4354373E-004	2.8210076E-002	2.6968191E-003	2.8338687E-002	5.4607515E+000
1.7057856E+001	3.5625252E+001	3.4886622E+000	3.5795662E+001	-5.5929523E+000	3.870506116105535E+002	3.9972514E-001	2.1309322E-002	2.6744641E+003	2.5403517E+001	1.000000000000000E+000	11	5.0674663E-003	1.4156649E-004	2.7803352E-002	2.7226896E-003	2.7936347E-002	5.5929523E+000
1.3500864E+001	3.6132431E+001	3.6956291E+000	3.6320934E+001	-5.8399110E+000	3.893809916946047E+002	3.9975199E-001	2.1659583E-002	3.1898496E+003	3.3024246E+001	1.000000000000000E+000	11	5.0689396E-003	1.3955972E-004	2.7389441E-002	2.8013950E-003	2.7532332E-002	5.8399110E+000
1.0687415E+001	3.6634068E+001	3.8497581E+000	3.6835793E+001	-5.9990134E+000	3.913639043487783E+002	3.9973432E-001	2.1497471E-002	3.8682451E+003	4.2251377E+001	1.000000000000000E+000	11	5.0649624E-003	1.3750111E-004	2.6998840E-002	2.8372225E-003	2.7147509E-002	5.9990134E+000
8.4550838E+000	3.7192860E+001	4.0932574E+000	3.7417423E+001	-6.2804074E+000	3.938363399595546E+002	3.9975250E-001	2.1588093E-002	4.5986797E+003	5.5033043E+001	1.000000000000000E+000	11	5.0699343E-003	1.3549662E-004	2.6565121E-002	2.9236223E-003	2.6725518E-002	6.2804074E+000
6.7002563E+000	3.7756298E+001	4.3273940E+000	3.8003479E+001	-6.5383582E+000	3.969233037061349E+002	3.9973518E-001	2.1045484E-002	5.4891143E+003	7.1171875E+001	1.000000000000000E+000	11	5.0698244E-003	1.3340422E-004	2.6142236E-002	2.9962617E-003	2.6313381E-002	6.5383582E+000
5.3038006E+000	3.8315605E+001	4.6104922E+000	3.8591995E+001	-6.8613763E+000	4.007930001299828E+002	3.9975378E-001	2.1183768E-002	6.5085713E+003	9.2893600E+001	1.000000000000000E+000	11	5.0679129E-003	1.3132031E-004	2.5726531E-002	3.0956571E-003	2.5912110E-002	6.8613763E+000
4.2002678E+000	3.8916767E+001	4.9162297E+000	3.9226063E+001	-7.1998534E+000	4.056510510807275E+002	3.9975655E-001	2.1177681E-002	7.7074541E+003	1.2106702E+002	1.000000000000000E+000	11	5.0670914E-003	1.2917665E-004	2.5292242E-002	3.1950874E-003	2.5493255E-002	7.1998534E+000
3.3244674E+000	3.9573151E+001	5.2719574E+000	3.9922771E+001	-7.5882950E+000	4.117625456109818E+002	3.9975449E-001	2.0889124E-002	9.0808428E+003	1.5835384E+002	1.000000000000000E+000	11	5.0692377E-003	1.2697610E-004	2.4829002E-002	3.3077337E-003	2.5048362E-002	7.5882950E+000
2.6322436E+000	4.0228790E+001	5.6706100E+000	4.0626488E+001	-8.0234928E+000	4.194548779496981E+002	3.9975905E-001	2.0740181E-002	1.0662629E+004	2.0773291E+002	1.000000000000000E+000	11	5.0675259E-003	1.2473454E-004	2.4373529E-002	3.4356681E-003	2.4614483E-002	8.0234928E+000
2.0816679E+000	4.0948517E+001	6.1530857E+000	4.1408230E+001	-8.5455551E+000	4.291550743037660E+002	3.9975485E-001	2.0322429E-002	1.2425553E+004	2.7436475E+002	1.000000000000000E+000	11	5.0695725E-003	1.2242910E-004	2.3881678E-002	3.5885551E-003	2.4149789E-002	8.5455551E+000
1.6478591E+000	4.1685051E+001	6.7252111E+000	4.2224068E+001	-9.1647797E+000	4.426481259579596E+002	3.9975137E-001	1.8709572E-002	1.4361313E+004	3.6432239E+002	1.000000000000000E+000	12	5.0696200E-003	1.2006469E-004	2.3380844E-002	3.7721226E-003	2.3683175E-002	9.1647797E+000
1.3068749E+000	4.2470993E+001	7.4052629E+000	4.3111752E+001	-9.8906889E+000	4.580461440760118E+002	3.9975473E-001	1.8278815E-002	1.6445445E+004	4.8521619E+002	1.000000000000000E+000	12	5.0711781E-003	1.1762867E-004	2.2850782E-002	3.9842734E-003	2.3195531E-002	9.8906889E+000
1.0333992E+000	4.3304668E+001	8.2121811E+000	4.4076458E+001	-1.0737910E+001	4.774940229997446E+002	3.9975408E-001	1.7799241E-002	1.8753982E+004	6.5102423E+002	1.000000000000000E+000	12	5.0701294E-003	1.1503033E-004	2.2290578E-002	4.2271256E-003	2.2687849E-002	1.0737910E+001
8.1849140E-001	4.4210320E+001	9.1729584E+000	4.5151917E+001	-1.1721672E+001	5.020234756581194E+002	3.9975917E-001	1.7154148E-002	2.1198084E+004	8.7490936E+002	1.000000000000000E+000	12	5.0701117E-003	1.1229006E-004	2.1685593E-002	4.4994252E-003	2.2147454E-002	1.1721672E+001
6.4780265E-001	4.5174652E+001	1.0375263E+001	4.6350784E+001	-1.2934807E+001	5.329946071558225E+002	3.9975467E-001	1.6442357E-002	2.3679816E+004	1.1864854E+003	1.000000000000000E+000	12	5.0691650E-003	1.0936525E-004	2.1027161E-002	4.8293085E-003	2.1574607E-002	1.2934807E+001
5.1269847E-001	4.6215858E+001	1.1799217E+001	4.7698292E+001	-1.4322049E+001	5.721058739202563E+002	3.9975551E-001	1.5563182E-002	2.6309035E+004	1.6099250E+003	1.000000000000000E+000	12	5.0703599E-003	1.0630066E-004	2.0313527E-002	5.1861792E-003	2.0965111E-002	1.4322049E+001
